Using: /usr/bin/time -p /package/eda/synopsys/hspice-E-2010.12-SP2/hspice/amd64/hspice  spice.in
 ****** HSPICE -- E-2010.12-SP2 64-BIT (May 23 2011) linux ******               
  Copyright (C) 2010 Synopsys, Inc. All Rights Reserved.                        
  Unpublished-rights reserved under US copyright laws.
  This program is protected by law and is subject to the
  terms and conditions of the license agreement from Synopsys.
  Use of this program is your acceptance to be bound by the
  license agreement. HSPICE is the trademark of Synopsys, Inc.
  Input File: spice.in                                                          
  Command line options: spice.in
 lic:  
 lic: FLEXlm: v10.8 
 lic: USER:   559mg3               HOSTNAME: ee207lnx15.ecn.purdue.edu 
 lic: HOSTID:                      PID:      31544 
 lic: Using FLEXlm license file: 
 lic: 1718@marina.ecn.purdue.edu 
 lic: Checkout 1 hspice 
 lic: License/Maintenance for hspice will expire on 14-sep-2015/2014.09 
 lic: 1(in_use)/50(total) FLOATING license(s) on SERVER marina.ecn.purdue.edu 
 lic:   
 Init: read install configuration file: /package/eda/synopsys/hspice-E-2010.12-SP2/hspice/meta.cfg
  **warning** (spice.in:8) No independent source value specified. Reset to zero.
 

 Warning: Pd = 0 is less than W.
 Model:    0:tsmc25n
 W = 3e-07, L = 2.1e-07

  
      
 *****************************************************************
 ******  option summary
 ******
 runlvl  = 3         bypass  = 2         
 ******  
 

  ******  dc transfer curves tnom=  25.000 temp=  25.000 *****

   *** source        0:vds =  0.000000e+00    ***

x

         volt    voltage       voltage       current     
                      2             1            vds     
  4.8000000e-02  4.800000e-02  0.000000e+00  0.000000e+00
  1.4800000e-01  1.480000e-01  0.000000e+00  0.000000e+00
  2.4800000e-01  2.480000e-01  0.000000e+00  0.000000e+00
  3.4800000e-01  3.480000e-01  0.000000e+00  0.000000e+00
  4.4800000e-01  4.480000e-01  0.000000e+00  0.000000e+00
  5.4800000e-01  5.480000e-01  0.000000e+00  0.000000e+00
  6.4800000e-01  6.480000e-01  0.000000e+00  0.000000e+00
  7.4800000e-01  7.480000e-01  0.000000e+00  0.000000e+00
  8.4800000e-01  8.480000e-01  0.000000e+00  0.000000e+00
  9.4800000e-01  9.480000e-01  0.000000e+00  0.000000e+00
  1.0480000e+00  1.048000e+00  0.000000e+00  0.000000e+00
  1.1480000e+00  1.148000e+00  0.000000e+00  0.000000e+00
  1.2480000e+00  1.248000e+00  0.000000e+00  0.000000e+00
  1.3480000e+00  1.348000e+00  0.000000e+00  0.000000e+00
  1.4480000e+00  1.448000e+00  0.000000e+00  0.000000e+00
  1.5480000e+00  1.548000e+00  0.000000e+00  0.000000e+00
  1.6480000e+00  1.648000e+00  0.000000e+00  0.000000e+00
  1.7480000e+00  1.748000e+00  0.000000e+00  0.000000e+00
  1.8480000e+00  1.848000e+00  0.000000e+00  0.000000e+00
  1.9480000e+00  1.948000e+00  0.000000e+00  0.000000e+00
  2.0480000e+00  2.048000e+00  0.000000e+00  0.000000e+00
  2.1480000e+00  2.148000e+00  0.000000e+00  0.000000e+00
  2.2480000e+00  2.248000e+00  0.000000e+00  0.000000e+00
  2.3480000e+00  2.348000e+00  0.000000e+00  0.000000e+00
  2.4480000e+00  2.448000e+00  0.000000e+00  0.000000e+00
  2.5480000e+00  2.548000e+00  0.000000e+00  0.000000e+00
  2.6480000e+00  2.648000e+00  0.000000e+00    NaN       
  2.7480000e+00  2.748000e+00  0.000000e+00    NaN       
  2.8480000e+00  2.848000e+00  0.000000e+00    NaN       
  2.9480000e+00  2.948000e+00  0.000000e+00    NaN       
  3.0480000e+00  3.048000e+00  0.000000e+00    NaN       
  3.1480000e+00  3.148000e+00  0.000000e+00    NaN       
  3.2480000e+00  3.248000e+00  0.000000e+00    NaN       
  3.3480000e+00  3.348000e+00  0.000000e+00    NaN       
  3.4480000e+00  3.448000e+00  0.000000e+00    NaN       
  3.5480000e+00  3.548000e+00  0.000000e+00    NaN       
  3.6480000e+00  3.648000e+00  0.000000e+00    NaN       
y
 ******  
 

  ******  dc transfer curves tnom=  25.000 temp=  25.000 *****

   *** source        0:vds =  1.000000e-01    ***

x

         volt    voltage       voltage       current     
                      2             1            vds     
  4.8000000e-02  4.800000e-02  1.000000e-01 -9.045436e-12
  1.4800000e-01  1.480000e-01  1.000000e-01 -7.766716e-11
  2.4800000e-01  2.480000e-01  1.000000e-01 -6.665864e-10
  3.4800000e-01  3.480000e-01  1.000000e-01 -5.482005e-09
  4.4800000e-01  4.480000e-01  1.000000e-01 -4.161064e-08
  5.4800000e-01  5.480000e-01  1.000000e-01 -2.880586e-07
  6.4800000e-01  6.480000e-01  1.000000e-01 -1.508479e-06
  7.4800000e-01  7.480000e-01  1.000000e-01 -4.396490e-06
  8.4800000e-01  8.480000e-01  1.000000e-01 -8.313949e-06
  9.4800000e-01  9.480000e-01  1.000000e-01 -1.273865e-05
  1.0480000e+00  1.048000e+00  1.000000e-01 -1.759496e-05
  1.1480000e+00  1.148000e+00  1.000000e-01 -2.297166e-05
  1.2480000e+00  1.248000e+00  1.000000e-01 -2.899898e-05
  1.3480000e+00  1.348000e+00  1.000000e-01 -3.582789e-05
  1.4480000e+00  1.448000e+00  1.000000e-01 -4.363937e-05
  1.5480000e+00  1.548000e+00  1.000000e-01 -5.266187e-05
  1.6480000e+00  1.648000e+00  1.000000e-01 -6.319469e-05
  1.7480000e+00  1.748000e+00  1.000000e-01 -7.564146e-05
  1.8480000e+00  1.848000e+00  1.000000e-01 -9.056085e-05
  1.9480000e+00  1.948000e+00  1.000000e-01 -1.087472e-04
  2.0480000e+00  2.048000e+00  1.000000e-01 -1.313607e-04
  2.1480000e+00  2.148000e+00  1.000000e-01 -1.601269e-04
  2.2480000e+00  2.248000e+00  1.000000e-01 -1.974833e-04
  2.3480000e+00  2.348000e+00  1.000000e-01 -2.441291e-04
  2.4480000e+00  2.448000e+00  1.000000e-01 -2.549478e-04
  2.5480000e+00  2.548000e+00  1.000000e-01 -8.663584e-04
  2.6480000e+00  2.648000e+00  1.000000e-01 -5.647568e-04
  2.7480000e+00  2.748000e+00  1.000000e-01 -5.865701e-04
  2.8480000e+00  2.848000e+00  1.000000e-01 -6.352186e-04
  2.9480000e+00  2.948000e+00  1.000000e-01 -7.004166e-04
  3.0480000e+00  3.048000e+00  1.000000e-01 -7.933254e-04
  3.1480000e+00  3.148000e+00  1.000000e-01    NaN       
  3.2480000e+00  3.248000e+00  1.000000e-01    NaN       
  3.3480000e+00  3.348000e+00  1.000000e-01    NaN       
  3.4480000e+00  3.448000e+00  1.000000e-01    NaN       
  3.5480000e+00  3.548000e+00  1.000000e-01    NaN       
  3.6480000e+00  3.648000e+00  1.000000e-01    NaN       
y
 ******  
 

  ******  dc transfer curves tnom=  25.000 temp=  25.000 *****

   *** source        0:vds =  2.000000e-01    ***

x

         volt    voltage       voltage       current     
                      2             1            vds     
  4.8000000e-02  4.800000e-02  2.000000e-01 -1.002112e-11
  1.4800000e-01  1.480000e-01  2.000000e-01 -8.465165e-11
  2.4800000e-01  2.480000e-01  2.000000e-01 -7.249482e-10
  3.4800000e-01  3.480000e-01  2.000000e-01 -5.957502e-09
  4.4800000e-01  4.480000e-01  2.000000e-01 -4.522291e-08
  5.4800000e-01  5.480000e-01  2.000000e-01 -3.150597e-07
  6.4800000e-01  6.480000e-01  2.000000e-01 -1.726898e-06
  7.4800000e-01  7.480000e-01  2.000000e-01 -5.694963e-06
  8.4800000e-01  8.480000e-01  2.000000e-01 -1.192892e-05
  9.4800000e-01  9.480000e-01  2.000000e-01 -1.925918e-05
  1.0480000e+00  1.048000e+00  2.000000e-01 -2.730767e-05
  1.1480000e+00  1.148000e+00  2.000000e-01 -3.613395e-05
  1.2480000e+00  1.248000e+00  2.000000e-01 -4.589417e-05
  1.3480000e+00  1.348000e+00  2.000000e-01 -5.677095e-05
  1.4480000e+00  1.448000e+00  2.000000e-01 -6.897458e-05
  1.5480000e+00  1.548000e+00  2.000000e-01 -8.275807e-05
  1.6480000e+00  1.648000e+00  2.000000e-01 -9.843595e-05
  1.7480000e+00  1.748000e+00  2.000000e-01 -1.164069e-04
  1.8480000e+00  1.848000e+00  2.000000e-01 -1.371813e-04
  1.9480000e+00  1.948000e+00  2.000000e-01 -1.614083e-04
  2.0480000e+00  2.048000e+00  2.000000e-01 -1.898607e-04
  2.1480000e+00  2.148000e+00  2.000000e-01 -2.231159e-04
  2.2480000e+00  2.248000e+00  2.000000e-01 -2.595325e-04
  2.3480000e+00  2.348000e+00  2.000000e-01 -2.891720e-04
  2.4480000e+00  2.448000e+00  2.000000e-01 -2.688780e-04
  2.5480000e+00  2.548000e+00  2.000000e-01 -8.207798e-04
  2.6480000e+00  2.648000e+00  2.000000e-01 -5.640142e-04
  2.7480000e+00  2.748000e+00  2.000000e-01 -5.861176e-04
  2.8480000e+00  2.848000e+00  2.000000e-01 -6.349714e-04
  2.9480000e+00  2.948000e+00  2.000000e-01 -7.006777e-04
  3.0480000e+00  3.048000e+00  2.000000e-01 -7.950113e-04
  3.1480000e+00  3.148000e+00  2.000000e-01    NaN       
  3.2480000e+00  3.248000e+00  2.000000e-01    NaN       
  3.3480000e+00  3.348000e+00  2.000000e-01    NaN       
  3.4480000e+00  3.448000e+00  2.000000e-01    NaN       
  3.5480000e+00  3.548000e+00  2.000000e-01    NaN       
  3.6480000e+00  3.648000e+00  2.000000e-01    NaN       
y
 ******  
 

  ******  dc transfer curves tnom=  25.000 temp=  25.000 *****

   *** source        0:vds =  3.000000e-01    ***

x

         volt    voltage       voltage       current     
                      2             1            vds     
  4.8000000e-02  4.800000e-02  3.000000e-01 -1.088890e-11
  1.4800000e-01  1.480000e-01  3.000000e-01 -9.068944e-11
  2.4800000e-01  2.480000e-01  3.000000e-01 -7.751178e-10
  3.4800000e-01  3.480000e-01  3.000000e-01 -6.363895e-09
  4.4800000e-01  4.480000e-01  3.000000e-01 -4.824228e-08
  5.4800000e-01  5.480000e-01  3.000000e-01 -3.351891e-07
  6.4800000e-01  6.480000e-01  3.000000e-01 -1.829148e-06
  7.4800000e-01  7.480000e-01  3.000000e-01 -6.073415e-06
  8.4800000e-01  8.480000e-01  3.000000e-01 -1.310414e-05
  9.4800000e-01  9.480000e-01  3.000000e-01 -2.193651e-05
  1.0480000e+00  1.048000e+00  3.000000e-01 -3.196159e-05
  1.1480000e+00  1.148000e+00  3.000000e-01 -4.302844e-05
  1.2480000e+00  1.248000e+00  3.000000e-01 -5.520305e-05
  1.3480000e+00  1.348000e+00  3.000000e-01 -6.863016e-05
  1.4480000e+00  1.448000e+00  3.000000e-01 -8.349326e-05
  1.5480000e+00  1.548000e+00  3.000000e-01 -1.000120e-04
  1.6480000e+00  1.648000e+00  3.000000e-01 -1.184479e-04
  1.7480000e+00  1.748000e+00  3.000000e-01 -1.391066e-04
  1.8480000e+00  1.848000e+00  3.000000e-01 -1.623206e-04
  1.9480000e+00  1.948000e+00  3.000000e-01 -1.883625e-04
  2.0480000e+00  2.048000e+00  3.000000e-01 -2.171626e-04
  2.1480000e+00  2.148000e+00  3.000000e-01 -2.477324e-04
  2.2480000e+00  2.248000e+00  3.000000e-01 -2.774382e-04
  2.3480000e+00  2.348000e+00  3.000000e-01 -2.992353e-04
  2.4480000e+00  2.448000e+00  3.000000e-01 -2.710396e-04
  2.5480000e+00  2.548000e+00  3.000000e-01 -7.891795e-04
  2.6480000e+00  2.648000e+00  3.000000e-01 -5.640855e-04
  2.7480000e+00  2.748000e+00  3.000000e-01 -5.865918e-04
  2.8480000e+00  2.848000e+00  3.000000e-01 -6.355314e-04
  2.9480000e+00  2.948000e+00  3.000000e-01 -7.015613e-04
  3.0480000e+00  3.048000e+00  3.000000e-01 -7.971784e-04
  3.1480000e+00  3.148000e+00  3.000000e-01    NaN       
  3.2480000e+00  3.248000e+00  3.000000e-01    NaN       
  3.3480000e+00  3.348000e+00  3.000000e-01    NaN       
  3.4480000e+00  3.448000e+00  3.000000e-01    NaN       
  3.5480000e+00  3.548000e+00  3.000000e-01    NaN       
  3.6480000e+00  3.648000e+00  3.000000e-01    NaN       
y
 ******  
 

  ******  dc transfer curves tnom=  25.000 temp=  25.000 *****

   *** source        0:vds =  4.000000e-01    ***

x

         volt    voltage       voltage       current     
                      2             1            vds     
  4.8000000e-02  4.800000e-02  4.000000e-01 -1.176290e-11
  1.4800000e-01  1.480000e-01  4.000000e-01 -9.678036e-11
  2.4800000e-01  2.480000e-01  4.000000e-01 -8.257095e-10
  3.4800000e-01  3.480000e-01  4.000000e-01 -6.773001e-09
  4.4800000e-01  4.480000e-01  4.000000e-01 -5.126737e-08
  5.4800000e-01  5.480000e-01  4.000000e-01 -3.549678e-07
  6.4800000e-01  6.480000e-01  4.000000e-01 -1.921501e-06
  7.4800000e-01  7.480000e-01  4.000000e-01 -6.340686e-06
  8.4800000e-01  8.480000e-01  4.000000e-01 -1.369321e-05
  9.4800000e-01  9.480000e-01  4.000000e-01 -2.308775e-05
  1.0480000e+00  1.048000e+00  4.000000e-01 -3.399542e-05
  1.1480000e+00  1.148000e+00  4.000000e-01 -4.625002e-05
  1.2480000e+00  1.248000e+00  4.000000e-01 -5.983487e-05
  1.3480000e+00  1.348000e+00  4.000000e-01 -7.480431e-05
  1.4480000e+00  1.448000e+00  4.000000e-01 -9.126221e-05
  1.5480000e+00  1.548000e+00  4.000000e-01 -1.093498e-04
  1.6480000e+00  1.648000e+00  4.000000e-01 -1.292308e-04
  1.7480000e+00  1.748000e+00  4.000000e-01 -1.510645e-04
  1.8480000e+00  1.848000e+00  4.000000e-01 -1.749540e-04
  1.9480000e+00  1.948000e+00  4.000000e-01 -2.008563e-04
  2.0480000e+00  2.048000e+00  4.000000e-01 -2.284501e-04
  2.1480000e+00  2.148000e+00  4.000000e-01 -2.569058e-04
  2.2480000e+00  2.248000e+00  4.000000e-01 -2.841743e-04
  2.3480000e+00  2.348000e+00  4.000000e-01 -3.035551e-04
  2.4480000e+00  2.448000e+00  4.000000e-01 -2.706969e-04
  2.5480000e+00  2.548000e+00  4.000000e-01 -7.642372e-04
  2.6480000e+00  2.648000e+00  4.000000e-01 -5.644704e-04
  2.7480000e+00  2.748000e+00  4.000000e-01 -5.874931e-04
  2.8480000e+00  2.848000e+00  4.000000e-01 -6.365331e-04
  2.9480000e+00  2.948000e+00  4.000000e-01 -7.028368e-04
  3.0480000e+00  3.048000e+00  4.000000e-01 -7.997087e-04
  3.1480000e+00  3.148000e+00  4.000000e-01    NaN       
  3.2480000e+00  3.248000e+00  4.000000e-01    NaN       
  3.3480000e+00  3.348000e+00  4.000000e-01    NaN       
  3.4480000e+00  3.448000e+00  4.000000e-01    NaN       
  3.5480000e+00  3.548000e+00  4.000000e-01    NaN       
  3.6480000e+00  3.648000e+00  4.000000e-01    NaN       
y
 ******  
 

  ******  dc transfer curves tnom=  25.000 temp=  25.000 *****

   *** source        0:vds =  5.000000e-01    ***

x

         volt    voltage       voltage       current     
                      2             1            vds     
  4.8000000e-02  4.800000e-02  5.000000e-01 -1.265639e-11
  1.4800000e-01  1.480000e-01  5.000000e-01 -1.030405e-10
  2.4800000e-01  2.480000e-01  5.000000e-01 -8.777208e-10
  3.4800000e-01  3.480000e-01  5.000000e-01 -7.193073e-09
  4.4800000e-01  4.480000e-01  5.000000e-01 -5.436500e-08
  5.4800000e-01  5.480000e-01  5.000000e-01 -3.750400e-07
  6.4800000e-01  6.480000e-01  5.000000e-01 -2.012118e-06
  7.4800000e-01  7.480000e-01  5.000000e-01 -6.582575e-06
  8.4800000e-01  8.480000e-01  5.000000e-01 -1.415932e-05
  9.4800000e-01  9.480000e-01  5.000000e-01 -2.386480e-05
  1.0480000e+00  1.048000e+00  5.000000e-01 -3.519844e-05
  1.1480000e+00  1.148000e+00  5.000000e-01 -4.801420e-05
  1.2480000e+00  1.248000e+00  5.000000e-01 -6.229215e-05
  1.3480000e+00  1.348000e+00  5.000000e-01 -7.805446e-05
  1.4480000e+00  1.448000e+00  5.000000e-01 -9.534873e-05
  1.5480000e+00  1.548000e+00  5.000000e-01 -1.142425e-04
  1.6480000e+00  1.648000e+00  5.000000e-01 -1.348115e-04
  1.7480000e+00  1.748000e+00  5.000000e-01 -1.571171e-04
  1.8480000e+00  1.848000e+00  5.000000e-01 -1.811710e-04
  1.9480000e+00  1.948000e+00  5.000000e-01 -2.068800e-04
  2.0480000e+00  2.048000e+00  5.000000e-01 -2.339468e-04
  2.1480000e+00  2.148000e+00  5.000000e-01 -2.616317e-04
  2.2480000e+00  2.248000e+00  5.000000e-01 -2.879736e-04
  2.3480000e+00  2.348000e+00  5.000000e-01 -3.061712e-04
  2.4480000e+00  2.448000e+00  5.000000e-01 -2.692949e-04
  2.5480000e+00  2.548000e+00  5.000000e-01 -7.436437e-04
  2.6480000e+00  2.648000e+00  5.000000e-01 -5.650206e-04
  2.7480000e+00  2.748000e+00  5.000000e-01 -5.886283e-04
  2.8480000e+00  2.848000e+00  5.000000e-01 -6.378039e-04
  2.9480000e+00  2.948000e+00  5.000000e-01 -7.043769e-04
  3.0480000e+00  3.048000e+00  5.000000e-01 -8.025305e-04
  3.1480000e+00  3.148000e+00  5.000000e-01    NaN       
  3.2480000e+00  3.248000e+00  5.000000e-01    NaN       
  3.3480000e+00  3.348000e+00  5.000000e-01    NaN       
  3.4480000e+00  3.448000e+00  5.000000e-01    NaN       
  3.5480000e+00  3.548000e+00  5.000000e-01    NaN       
  3.6480000e+00  3.648000e+00  5.000000e-01    NaN       
y
 ******  
 

  ******  dc transfer curves tnom=  25.000 temp=  25.000 *****

   *** source        0:vds =  6.000000e-01    ***

x

         volt    voltage       voltage       current     
                      2             1            vds     
  4.8000000e-02  4.800000e-02  6.000000e-01 -1.357337e-11
  1.4800000e-01  1.480000e-01  6.000000e-01 -1.095046e-10
  2.4800000e-01  2.480000e-01  6.000000e-01 -9.314495e-10
  3.4800000e-01  3.480000e-01  6.000000e-01 -7.626543e-09
  4.4800000e-01  4.480000e-01  6.000000e-01 -5.755437e-08
  5.4800000e-01  5.480000e-01  6.000000e-01 -3.955790e-07
  6.4800000e-01  6.480000e-01  6.000000e-01 -2.102928e-06
  7.4800000e-01  7.480000e-01  6.000000e-01 -6.814918e-06
  8.4800000e-01  8.480000e-01  6.000000e-01 -1.457948e-05
  9.4800000e-01  9.480000e-01  6.000000e-01 -2.451366e-05
  1.0480000e+00  1.048000e+00  6.000000e-01 -3.612635e-05
  1.1480000e+00  1.148000e+00  6.000000e-01 -4.927883e-05
  1.2480000e+00  1.248000e+00  6.000000e-01 -6.394989e-05
  1.3480000e+00  1.348000e+00  6.000000e-01 -8.014852e-05
  1.4480000e+00  1.448000e+00  6.000000e-01 -9.789614e-05
  1.5480000e+00  1.548000e+00  6.000000e-01 -1.172229e-04
  1.6480000e+00  1.648000e+00  6.000000e-01 -1.381601e-04
  1.7480000e+00  1.748000e+00  6.000000e-01 -1.607255e-04
  1.8480000e+00  1.848000e+00  6.000000e-01 -1.848962e-04
  1.9480000e+00  1.948000e+00  6.000000e-01 -2.105628e-04
  2.0480000e+00  2.048000e+00  6.000000e-01 -2.374333e-04
  2.1480000e+00  2.148000e+00  6.000000e-01 -2.647854e-04
  2.2480000e+00  2.248000e+00  6.000000e-01 -2.906548e-04
  2.3480000e+00  2.348000e+00  6.000000e-01 -3.080606e-04
  2.4480000e+00  2.448000e+00  6.000000e-01 -2.672477e-04
  2.5480000e+00  2.548000e+00  6.000000e-01 -7.262457e-04
  2.6480000e+00  2.648000e+00  6.000000e-01 -5.656760e-04
  2.7480000e+00  2.748000e+00  6.000000e-01 -5.899070e-04
  2.8480000e+00  2.848000e+00  6.000000e-01 -6.392520e-04
  2.9480000e+00  2.948000e+00  6.000000e-01 -7.061054e-04
  3.0480000e+00  3.048000e+00  6.000000e-01 -8.056001e-04
  3.1480000e+00  3.148000e+00  6.000000e-01    NaN       
  3.2480000e+00  3.248000e+00  6.000000e-01    NaN       
  3.3480000e+00  3.348000e+00  6.000000e-01    NaN       
  3.4480000e+00  3.448000e+00  6.000000e-01    NaN       
  3.5480000e+00  3.548000e+00  6.000000e-01    NaN       
  3.6480000e+00  3.648000e+00  6.000000e-01    NaN       
y
 ******  
 

  ******  dc transfer curves tnom=  25.000 temp=  25.000 *****

   *** source        0:vds =  7.000000e-01    ***

x

         volt    voltage       voltage       current     
                      2             1            vds     
  4.8000000e-02  4.800000e-02  7.000000e-01 -1.451582e-11
  1.4800000e-01  1.480000e-01  7.000000e-01 -1.161902e-10
  2.4800000e-01  2.480000e-01  7.000000e-01 -9.870430e-10
  3.4800000e-01  3.480000e-01  7.000000e-01 -8.074589e-09
  4.4800000e-01  4.480000e-01  7.000000e-01 -6.084439e-08
  5.4800000e-01  5.480000e-01  7.000000e-01 -4.166580e-07
  6.4800000e-01  6.480000e-01  7.000000e-01 -2.194667e-06
  7.4800000e-01  7.480000e-01  7.000000e-01 -7.043242e-06
  8.4800000e-01  8.480000e-01  7.000000e-01 -1.497712e-05
  9.4800000e-01  9.480000e-01  7.000000e-01 -2.510128e-05
  1.0480000e+00  1.048000e+00  7.000000e-01 -3.692855e-05
  1.1480000e+00  1.148000e+00  7.000000e-01 -5.032332e-05
  1.2480000e+00  1.248000e+00  7.000000e-01 -6.526260e-05
  1.3480000e+00  1.348000e+00  7.000000e-01 -8.174746e-05
  1.4480000e+00  1.448000e+00  7.000000e-01 -9.978525e-05
  1.5480000e+00  1.548000e+00  7.000000e-01 -1.193867e-04
  1.6480000e+00  1.648000e+00  7.000000e-01 -1.405609e-04
  1.7480000e+00  1.748000e+00  7.000000e-01 -1.633036e-04
  1.8480000e+00  1.848000e+00  7.000000e-01 -1.875746e-04
  1.9480000e+00  1.948000e+00  7.000000e-01 -2.132539e-04
  2.0480000e+00  2.048000e+00  7.000000e-01 -2.400460e-04
  2.1480000e+00  2.148000e+00  7.000000e-01 -2.672254e-04
  2.2480000e+00  2.248000e+00  7.000000e-01 -2.927976e-04
  2.3480000e+00  2.348000e+00  7.000000e-01 -3.095690e-04
  2.4480000e+00  2.448000e+00  7.000000e-01 -2.647051e-04
